
T2934 000:302 SEGGER J-Link V4.96d Log File (0000ms, 0268ms total)
T2934 000:302 DLL Compiled: Jan 29 2015 11:45:37 (0000ms, 0268ms total)
T2934 000:302 Logging started @ 2018-12-09 16:59 (0000ms, 0268ms total)
T2934 000:302 JLINK_SetWarnOutHandler(...) (0000ms, 0268ms total)
T2934 000:302 JLINK_OpenEx(...)
Firmware: J-Link ARM V8 compiled Nov 28 2014 13:44:46
Hardware: V8.00
S/N: 788594195
Feature(s): RDI,FlashDL,FlashBP,JFlash,GDB  returns O.K. (0265ms, 0533ms total)
T2934 000:567 JLINK_SetErrorOutHandler(...) (0000ms, 0533ms total)
T2934 000:567 JLINK_ExecCommand("ProjectFile = "C:\WB\automotor\IAP\IAP Bootloader V1.0\USER\JLinkSettings.ini"", ...)  returns 0x00 (0000ms, 0533ms total)
T2934 000:569 JLINK_ExecCommand("Device = STM32F407ZG", ...)Device "STM32F407ZG" selected.  returns 0x00 (0006ms, 0539ms total)
T2934 000:576 JLINK_ExecCommand("DisableConnectionTimeout", ...)  returns 0x01 (0000ms, 0539ms total)
T2934 000:576 JLINK_GetHardwareVersion()  returns 0x13880 (0000ms, 0539ms total)
T2934 000:576 JLINK_GetDLLVersion()  returns 49604 (0000ms, 0539ms total)
T2934 000:576 JLINK_GetFirmwareString(...) (0000ms, 0539ms total)
T2934 000:588 JLINK_GetDLLVersion()  returns 49604 (0000ms, 0539ms total)
T2934 000:588 JLINK_GetCompileDateTime() (0000ms, 0539ms total)
T2934 000:590 JLINK_GetFirmwareString(...) (0000ms, 0539ms total)
T2934 000:592 JLINK_GetHardwareVersion()  returns 0x13880 (0001ms, 0540ms total)
T2934 000:600 JLINK_TIF_Select(JLINKARM_TIF_SWD)  returns 0x00 (0001ms, 0541ms total)
T2934 000:601 JLINK_SetSpeed(10000) (0001ms, 0542ms total)
T2934 000:602 JLINK_GetId() >0x108 TIF>Found SWD-DP with ID 0x2BA01477 >0x0D TIF> >0x28 TIF> >0x0D TIF> >0x28 TIF> >0x0D TIF> >0x21 TIF> >0x0D TIF> >0x28 TIF> >0x0D TIF> >0x28 TIF> >0x0D TIF> >0x28 TIF> >0x0D TIF> >0x21 TIF> >0x0D TIF> >0x21 TIF> >0x0D TIF> >0x28 TIF> >0x0D TIF> >0x21 TIF> >0x0D TIF> >0x21 TIF> >0x0D TIF> >0x28 TIF> >0x0D TIF> >0x21 TIF> >0x0D TIF> >0x21 TIF> >0x108 TIF>Found SWD-DP with ID 0x2BA01477 >0x0D TIF> >0x21 TIF> >0x0D TIF> >0x28 TIF> >0x0D TIF> >0x28 TIF> >0x0D TIF> >0x21 TIF>
 >0x0D TIF> >0x28 TIF> >0x0D TIF> >0x21 TIF> >0x0D TIF> >0x21 TIF> >0x0D TIF> >0x21 TIF> >0x0D TIF> >0x21 TIF> >0x0D TIF> >0x28 TIF> >0x0D TIF> >0x28 TIF> >0x0D TIF> >0x21 TIF> >0x0D TIF> >0x28 TIF> >0x0D TIF> >0x28 TIF> >0x0D TIF> >0x28 TIF> >0x0D TIF> >0x21 TIF> >0x0D TIF> >0x21 TIF> >0x0D TIF> >0x28 TIF> >0x0D TIF> >0x21 TIF> >0x0D TIF> >0x21 TIF>Found Cortex-M4 r0p1, Little endian. -- CPU_WriteMem(4 bytes @ 0xE0002000) -- CPU_ReadMem(4 bytes @ 0xE000EDF0) -- CPU_ReadMem(4 bytes @ 0xE0002000)
FPUnit: 6 code (BP) slots and 2 literal slots -- CPU_ReadMem(4 bytes @ 0xE000EDFC) -- CPU_ReadMem(4 bytes @ 0xE0001000) -- CPU_WriteMem(4 bytes @ 0xE0001000) -- CPU_ReadMem(4 bytes @ 0xE000ED88) -- CPU_WriteMem(4 bytes @ 0xE000ED88) -- CPU_ReadMem(4 bytes @ 0xE000ED88) -- CPU_WriteMem(4 bytes @ 0xE000ED88) -- CPU_ReadMem(4 bytes @ 0xE00FF010)TPIU fitted. -- CPU_ReadMem(4 bytes @ 0xE00FF014)ETM fitted. -- CPU_ReadMem(4 bytes @ 0xE00FF018) >0x0D TIF> >0x21 TIF>  returns 0x2BA01477 (0049ms, 0591ms total)
T2934 000:651 JLINK_GetDLLVersion()  returns 49604 (0000ms, 0591ms total)
T2934 000:651 JLINK_CORE_GetFound()  returns 0xE0000FF (0000ms, 0591ms total)
T2934 000:651 JLINK_GetDebugInfo(0x100) -- Value=0xE00FF003  returns 0x00 (0000ms, 0591ms total)
T2934 000:654 JLINK_ReadMem (0xE00FF000, 0x0020 Bytes, ...) -- CPU is running -- CPU_ReadMem(32 bytes @ 0xE00FF000) - Data: 03 F0 F0 FF 03 20 F0 FF 03 30 F0 FF 03 10 F0 FF ...  returns 0x00 (0001ms, 0592ms total)
T2934 000:655 JLINK_ReadMem (0xE000EFF0, 0x0010 Bytes, ...) -- CPU is running -- CPU_ReadMem(16 bytes @ 0xE000EFF0) - Data: 0D 00 00 00 E0 00 00 00 05 00 00 00 B1 00 00 00  returns 0x00 (0000ms, 0592ms total)
T2934 000:655 JLINK_ReadMem (0xE000EFD0, 0x0020 Bytes, ...) -- CPU is running -- CPU_ReadMem(32 bytes @ 0xE000EFD0) - Data: 04 00 00 00 00 00 00 00 00 00 00 00 00 00 00 00 ...  returns 0x00 (0001ms, 0593ms total)
T2934 000:656 JLINK_ReadMem (0xE0001FF0, 0x0010 Bytes, ...) -- CPU is running -- CPU_ReadMem(16 bytes @ 0xE0001FF0) - Data: 0D 00 00 00 E0 00 00 00 05 00 00 00 B1 00 00 00  returns 0x00 (0001ms, 0594ms total)
T2934 000:657 JLINK_ReadMem (0xE0001FD0, 0x0020 Bytes, ...) -- CPU is running -- CPU_ReadMem(32 bytes @ 0xE0001FD0) - Data: 04 00 00 00 00 00 00 00 00 00 00 00 00 00 00 00 ...  returns 0x00 (0001ms, 0595ms total)
T2934 000:658 JLINK_ReadMem (0xE0002FF0, 0x0010 Bytes, ...) -- CPU is running -- CPU_ReadMem(16 bytes @ 0xE0002FF0) - Data: 0D 00 00 00 E0 00 00 00 05 00 00 00 B1 00 00 00  returns 0x00 (0001ms, 0596ms total)
T2934 000:659 JLINK_ReadMem (0xE0002FD0, 0x0020 Bytes, ...) -- CPU is running -- CPU_ReadMem(32 bytes @ 0xE0002FD0) - Data: 04 00 00 00 00 00 00 00 00 00 00 00 00 00 00 00 ...  returns 0x00 (0000ms, 0596ms total)
T2934 000:659 JLINK_ReadMem (0xE0000FF0, 0x0010 Bytes, ...) -- CPU is running -- CPU_ReadMem(16 bytes @ 0xE0000FF0) - Data: 0D 00 00 00 E0 00 00 00 05 00 00 00 B1 00 00 00  returns 0x00 (0001ms, 0597ms total)
T2934 000:660 JLINK_ReadMem (0xE0000FD0, 0x0020 Bytes, ...) -- CPU is running -- CPU_ReadMem(32 bytes @ 0xE0000FD0) - Data: 04 00 00 00 00 00 00 00 00 00 00 00 00 00 00 00 ...  returns 0x00 (0001ms, 0598ms total)
T2934 000:661 JLINK_ReadMem (0xE0040FF0, 0x0010 Bytes, ...) -- CPU is running -- CPU_ReadMem(16 bytes @ 0xE0040FF0) - Data: 0D 00 00 00 90 00 00 00 05 00 00 00 B1 00 00 00  returns 0x00 (0000ms, 0598ms total)
T2934 000:661 JLINK_ReadMem (0xE0040FD0, 0x0020 Bytes, ...) -- CPU is running -- CPU_ReadMem(32 bytes @ 0xE0040FD0) - Data: 04 00 00 00 00 00 00 00 00 00 00 00 00 00 00 00 ...  returns 0x00 (0002ms, 0600ms total)
T2934 000:663 JLINK_ReadMem (0xE0041FF0, 0x0010 Bytes, ...) -- CPU is running -- CPU_ReadMem(16 bytes @ 0xE0041FF0) - Data: 0D 00 00 00 90 00 00 00 05 00 00 00 B1 00 00 00  returns 0x00 (0000ms, 0600ms total)
T2934 000:663 JLINK_ReadMem (0xE0041FD0, 0x0020 Bytes, ...) -- CPU is running -- CPU_ReadMem(32 bytes @ 0xE0041FD0) - Data: 04 00 00 00 00 00 00 00 00 00 00 00 00 00 00 00 ...  returns 0x00 (0000ms, 0600ms total)
T2934 000:663 JLINK_ReadMemU32(0xE000EF40, 0x0001 Items, ...) -- CPU is running -- CPU_ReadMem(4 bytes @ 0xE000EF40) - Data: 21 00 11 10  returns 0x01 (0001ms, 0601ms total)
T2934 000:664 JLINK_ReadMemU32(0xE000EF44, 0x0001 Items, ...) -- CPU is running -- CPU_ReadMem(4 bytes @ 0xE000EF44) - Data: 11 00 00 11  returns 0x01 (0000ms, 0601ms total)
T2934 000:664 JLINK_ReadMemU32(0xE000ED00, 0x0001 Items, ...) -- CPU is running -- CPU_ReadMem(4 bytes @ 0xE000ED00) - Data: 41 C2 0F 41  returns 0x01 (0001ms, 0602ms total)
T2934 000:665 JLINK_SetResetType(JLINKARM_RESET_TYPE_NORMAL)  returns JLINKARM_RESET_TYPE_NORMAL (0000ms, 0602ms total)
T2934 000:665 JLINK_Reset() -- CPU is running -- CPU_WriteMem(4 bytes @ 0xE000EDF0) -- CPU is running -- CPU_WriteMem(4 bytes @ 0xE000EDFC) >0x35 TIF> -- CPU is running -- CPU_WriteMem(4 bytes @ 0xE000ED0C) -- CPU is running -- CPU_ReadMem(4 bytes @ 0xE000EDF0) -- CPU is running -- CPU_ReadMem(4 bytes @ 0xE000EDF0) -- CPU is running -- CPU_WriteMem(4 bytes @ 0xE000EDF0) -- CPU is running -- CPU_WriteMem(4 bytes @ 0xE000EDFC) -- CPU is running -- CPU_ReadMem(4 bytes @ 0xE000EDF0)
 -- CPU_WriteMem(4 bytes @ 0xE0002000) -- CPU_ReadMem(4 bytes @ 0xE000EDFC) -- CPU_ReadMem(4 bytes @ 0xE0001000) (0019ms, 0621ms total)
T2934 000:684 JLINK_Halt()  returns 0x00 (0000ms, 0621ms total)
T2934 000:684 JLINK_IsHalted()  returns TRUE (0000ms, 0621ms total)
T2934 000:684 JLINK_ReadMemU32(0xE000EDF0, 0x0001 Items, ...) -- CPU_ReadMem(4 bytes @ 0xE000EDF0) - Data: 03 00 03 00  returns 0x01 (0001ms, 0622ms total)
T2934 000:685 JLINK_WriteU32(0xE000EDF0, 0xA05F0003) -- CPU_WriteMem(4 bytes @ 0xE000EDF0)  returns 0x00 (0001ms, 0623ms total)
T2934 000:686 JLINK_WriteU32(0xE000EDFC, 0x01000000) -- CPU_WriteMem(4 bytes @ 0xE000EDFC)  returns 0x00 (0000ms, 0623ms total)
T2934 000:706 JLINK_GetHWStatus(...)  returns 0x00 (0000ms, 0623ms total)
T2934 000:717 JLINK_GetNumBPUnits(Type = 0xFFFFFF00)  returns 0x06 (0000ms, 0623ms total)
T2934 000:717 JLINK_GetNumBPUnits(Type = 0xF0)  returns 0x2000 (0000ms, 0623ms total)
T2934 000:717 JLINK_GetNumWPUnits()  returns 0x04 (0000ms, 0623ms total)
T2934 000:728 JLINK_GetSpeed()  returns 0xFA0 (0000ms, 0623ms total)
T2934 000:734 JLINK_ReadMemU32(0xE000E004, 0x0001 Items, ...) -- CPU_ReadMem(4 bytes @ 0xE000E004) - Data: 02 00 00 00  returns 0x01 (0001ms, 0624ms total)
T2934 000:735 JLINK_ReadMemU32(0xE000E004, 0x0001 Items, ...) -- CPU_ReadMem(4 bytes @ 0xE000E004) - Data: 02 00 00 00  returns 0x01 (0001ms, 0625ms total)
T2934 000:736 JLINK_WriteMem(0xE0001000, 0x001C Bytes, ...) - Data: 01 00 00 00 00 00 00 00 00 00 00 00 00 00 00 00 ... -- CPU_WriteMem(28 bytes @ 0xE0001000)  returns 0x1C (0001ms, 0626ms total)
T2934 000:737 JLINK_ReadMem (0xE0001000, 0x001C Bytes, ...) -- CPU_ReadMem(28 bytes @ 0xE0001000) - Data: 01 00 00 40 00 00 00 00 00 00 00 00 00 00 00 00 ...  returns 0x00 (0001ms, 0627ms total)
T2934 000:738 JLINK_Halt()  returns 0x00 (0000ms, 0627ms total)
T2934 000:738 JLINK_IsHalted()  returns TRUE (0000ms, 0627ms total)
T2934 000:741 JLINK_WriteMem(0x20000000, 0x0180 Bytes, ...) - Data: 00 BE 0A E0 0D 78 2D 06 68 40 08 24 40 00 00 D3 ... -- CPU_WriteMem(384 bytes @ 0x20000000)  returns 0x180 (0003ms, 0630ms total)
T2934 000:744 JLINK_WriteReg(R0, 0x08000000)  returns 0x00 (0001ms, 0631ms total)
T2934 000:745 JLINK_WriteReg(R1, 0x007A1200)  returns 0x00 (0000ms, 0631ms total)
T2934 000:745 JLINK_WriteReg(R2, 0x00000001)  returns 0x00 (0000ms, 0631ms total)
T2934 000:745 JLINK_WriteReg(R3, 0x00000000)  returns 0x00 (0000ms, 0631ms total)
T2934 000:745 JLINK_WriteReg(R4, 0x00000000)  returns 0x00 (0000ms, 0631ms total)
T2934 000:745 JLINK_WriteReg(R5, 0x00000000)  returns 0x00 (0000ms, 0631ms total)
T2934 000:745 JLINK_WriteReg(R6, 0x00000000)  returns 0x00 (0000ms, 0631ms total)
T2934 000:745 JLINK_WriteReg(R7, 0x00000000)  returns 0x00 (0000ms, 0631ms total)
T2934 000:745 JLINK_WriteReg(R8, 0x00000000)  returns 0x00 (0000ms, 0631ms total)
T2934 000:745 JLINK_WriteReg(R9, 0x2000017C)  returns 0x00 (0000ms, 0631ms total)
T2934 000:745 JLINK_WriteReg(R10, 0x00000000)  returns 0x00 (0000ms, 0631ms total)
T2934 000:745 JLINK_WriteReg(R11, 0x00000000)  returns 0x00 (0000ms, 0631ms total)
T2934 000:745 JLINK_WriteReg(R12, 0x00000000)  returns 0x00 (0000ms, 0631ms total)
T2934 000:745 JLINK_WriteReg(R13 (SP), 0x20001000)  returns 0x00 (0000ms, 0631ms total)
T2934 000:745 JLINK_WriteReg(R14, 0x20000001)  returns 0x00 (0000ms, 0631ms total)
T2934 000:745 JLINK_WriteReg(R15 (PC), 0x20000054)  returns 0x00 (0000ms, 0631ms total)
T2934 000:745 JLINK_WriteReg(XPSR, 0x01000000)  returns 0x00 (0000ms, 0631ms total)
T2934 000:745 JLINK_WriteReg(MSP, 0x20001000)  returns 0x00 (0000ms, 0631ms total)
T2934 000:745 JLINK_WriteReg(PSP, 0x20001000)  returns 0x00 (0000ms, 0631ms total)
T2934 000:745 JLINK_WriteReg(CFBP, 0x00000000)  returns 0x00 (0000ms, 0631ms total)
T2934 000:745 JLINK_SetBPEx(Addr = 0x20000000, Type = 0xFFFFFFF2) -- CPU_ReadMem(2 bytes @ 0x20000000)  returns 0x00000001 (0001ms, 0632ms total)
T2934 000:746 JLINK_Go() -- CPU_WriteMem(2 bytes @ 0x20000000) -- CPU_WriteMem(4 bytes @ 0xE0002008) -- CPU_WriteMem(4 bytes @ 0xE000200C) -- CPU_WriteMem(4 bytes @ 0xE0002010) -- CPU_WriteMem(4 bytes @ 0xE0002014) -- CPU_WriteMem(4 bytes @ 0xE0002018) -- CPU_WriteMem(4 bytes @ 0xE000201C) -- CPU_WriteMem(4 bytes @ 0xE0001004) (0005ms, 0637ms total)
T2934 000:751 JLINK_IsHalted() -- CPU_ReadMem(2 bytes @ 0x20000000)  returns TRUE (0003ms, 0640ms total)
T2934 000:754 JLINK_ReadReg(R15 (PC))  returns 0x20000000 (0000ms, 0637ms total)
T2934 000:754 JLINK_ClrBPEx(BPHandle = 0x00000001)  returns 0x00 (0000ms, 0637ms total)
T2934 000:754 JLINK_ReadReg(R0)  returns 0x00000000 (0000ms, 0637ms total)
T2934 000:755 JLINK_WriteReg(R0, 0x08000000)  returns 0x00 (0000ms, 0637ms total)
T2934 000:755 JLINK_WriteReg(R1, 0x00004000)  returns 0x00 (0000ms, 0637ms total)
T2934 000:755 JLINK_WriteReg(R2, 0x000000FF)  returns 0x00 (0000ms, 0637ms total)
T2934 000:755 JLINK_WriteReg(R3, 0x00000000)  returns 0x00 (0000ms, 0637ms total)
T2934 000:755 JLINK_WriteReg(R4, 0x00000000)  returns 0x00 (0000ms, 0637ms total)
T2934 000:755 JLINK_WriteReg(R5, 0x00000000)  returns 0x00 (0000ms, 0637ms total)
T2934 000:755 JLINK_WriteReg(R6, 0x00000000)  returns 0x00 (0000ms, 0637ms total)
T2934 000:755 JLINK_WriteReg(R7, 0x00000000)  returns 0x00 (0000ms, 0637ms total)
T2934 000:755 JLINK_WriteReg(R8, 0x00000000)  returns 0x00 (0000ms, 0637ms total)
T2934 000:755 JLINK_WriteReg(R9, 0x2000017C)  returns 0x00 (0000ms, 0637ms total)
T2934 000:755 JLINK_WriteReg(R10, 0x00000000)  returns 0x00 (0000ms, 0637ms total)
T2934 000:755 JLINK_WriteReg(R11, 0x00000000)  returns 0x00 (0000ms, 0637ms total)
T2934 000:755 JLINK_WriteReg(R12, 0x00000000)  returns 0x00 (0000ms, 0637ms total)
T2934 000:755 JLINK_WriteReg(R13 (SP), 0x20001000)  returns 0x00 (0000ms, 0637ms total)
T2934 000:755 JLINK_WriteReg(R14, 0x20000001)  returns 0x00 (0000ms, 0637ms total)
T2934 000:755 JLINK_WriteReg(R15 (PC), 0x20000020)  returns 0x00 (0000ms, 0637ms total)
T2934 000:755 JLINK_WriteReg(XPSR, 0x01000000)  returns 0x00 (0000ms, 0637ms total)
T2934 000:755 JLINK_WriteReg(MSP, 0x20001000)  returns 0x00 (0000ms, 0637ms total)
T2934 000:755 JLINK_WriteReg(PSP, 0x20001000)  returns 0x00 (0000ms, 0637ms total)
T2934 000:755 JLINK_WriteReg(CFBP, 0x00000000)  returns 0x00 (0000ms, 0637ms total)
T2934 000:755 JLINK_SetBPEx(Addr = 0x20000000, Type = 0xFFFFFFF2)  returns 0x00000002 (0000ms, 0637ms total)
T2934 000:755 JLINK_Go() (0002ms, 0639ms total)
T2934 000:757 JLINK_IsHalted() -- CPU_ReadMem(2 bytes @ 0x20000000)  returns TRUE (0003ms, 0642ms total)
T2934 000:760 JLINK_ReadReg(R15 (PC))  returns 0x20000000 (0000ms, 0639ms total)
T2934 000:760 JLINK_ClrBPEx(BPHandle = 0x00000002)  returns 0x00 (0000ms, 0639ms total)
T2934 000:760 JLINK_ReadReg(R0)  returns 0x00000001 (0000ms, 0639ms total)
T2934 000:760 JLINK_WriteReg(R0, 0x08000000)  returns 0x00 (0000ms, 0639ms total)
T2934 000:760 JLINK_WriteReg(R1, 0x00004000)  returns 0x00 (0000ms, 0639ms total)
T2934 000:760 JLINK_WriteReg(R2, 0x000000FF)  returns 0x00 (0000ms, 0639ms total)
T2934 000:760 JLINK_WriteReg(R3, 0x00000000)  returns 0x00 (0000ms, 0639ms total)
T2934 000:760 JLINK_WriteReg(R4, 0x00000000)  returns 0x00 (0000ms, 0639ms total)
T2934 000:760 JLINK_WriteReg(R5, 0x00000000)  returns 0x00 (0000ms, 0639ms total)
T2934 000:760 JLINK_WriteReg(R6, 0x00000000)  returns 0x00 (0000ms, 0639ms total)
T2934 000:760 JLINK_WriteReg(R7, 0x00000000)  returns 0x00 (0000ms, 0639ms total)
T2934 000:760 JLINK_WriteReg(R8, 0x00000000)  returns 0x00 (0000ms, 0639ms total)
T2934 000:760 JLINK_WriteReg(R9, 0x2000017C)  returns 0x00 (0000ms, 0639ms total)
T2934 000:760 JLINK_WriteReg(R10, 0x00000000)  returns 0x00 (0000ms, 0639ms total)
T2934 000:760 JLINK_WriteReg(R11, 0x00000000)  returns 0x00 (0000ms, 0639ms total)
T2934 000:760 JLINK_WriteReg(R12, 0x00000000)  returns 0x00 (0000ms, 0639ms total)
T2934 000:760 JLINK_WriteReg(R13 (SP), 0x20001000)  returns 0x00 (0000ms, 0639ms total)
T2934 000:760 JLINK_WriteReg(R14, 0x20000001)  returns 0x00 (0000ms, 0639ms total)
T2934 000:760 JLINK_WriteReg(R15 (PC), 0x200000BC)  returns 0x00 (0000ms, 0639ms total)
T2934 000:760 JLINK_WriteReg(XPSR, 0x01000000)  returns 0x00 (0000ms, 0639ms total)
T2934 000:760 JLINK_WriteReg(MSP, 0x20001000)  returns 0x00 (0000ms, 0639ms total)
T2934 000:760 JLINK_WriteReg(PSP, 0x20001000)  returns 0x00 (0000ms, 0639ms total)
T2934 000:760 JLINK_WriteReg(CFBP, 0x00000000)  returns 0x00 (0000ms, 0639ms total)
T2934 000:760 JLINK_SetBPEx(Addr = 0x20000000, Type = 0xFFFFFFF2)  returns 0x00000003 (0000ms, 0639ms total)
T2934 000:760 JLINK_Go() (0002ms, 0641ms total)
T2934 000:762 JLINK_IsHalted()  returns FALSE (0001ms, 0642ms total)
T2934 000:841 JLINK_IsHalted()  returns FALSE (0000ms, 0641ms total)
T2934 000:843 JLINK_IsHalted()  returns FALSE (0001ms, 0642ms total)
T2934 000:846 JLINK_IsHalted()  returns FALSE (0000ms, 0641ms total)
T2934 000:848 JLINK_IsHalted()  returns FALSE (0000ms, 0641ms total)
T2934 000:856 JLINK_IsHalted()  returns FALSE (0000ms, 0641ms total)
T2934 000:858 JLINK_IsHalted()  returns FALSE (0000ms, 0641ms total)
T2934 000:860 JLINK_IsHalted()  returns FALSE (0000ms, 0641ms total)
T2934 000:862 JLINK_IsHalted()  returns FALSE (0000ms, 0641ms total)
T2934 000:864 JLINK_IsHalted()  returns FALSE (0000ms, 0641ms total)
T2934 000:869 JLINK_IsHalted()  returns FALSE (0000ms, 0641ms total)
T2934 000:871 JLINK_IsHalted()  returns FALSE (0001ms, 0642ms total)
T2934 000:873 JLINK_IsHalted()  returns FALSE (0001ms, 0642ms total)
T2934 000:876 JLINK_IsHalted()  returns FALSE (0001ms, 0642ms total)
T2934 000:879 JLINK_IsHalted()  returns FALSE (0000ms, 0641ms total)
T2934 000:884 JLINK_IsHalted()  returns FALSE (0000ms, 0641ms total)
T2934 000:886 JLINK_IsHalted()  returns FALSE (0000ms, 0641ms total)
T2934 000:888 JLINK_IsHalted()  returns FALSE (0000ms, 0641ms total)
T2934 000:890 JLINK_IsHalted()  returns FALSE (0000ms, 0641ms total)
T2934 000:892 JLINK_IsHalted()  returns FALSE (0000ms, 0641ms total)
T2934 000:894 JLINK_IsHalted()  returns FALSE (0000ms, 0641ms total)
T2934 000:899 JLINK_IsHalted()  returns FALSE (0000ms, 0641ms total)
T2934 000:901 JLINK_IsHalted()  returns FALSE (0000ms, 0641ms total)
T2934 000:903 JLINK_IsHalted()  returns FALSE (0000ms, 0641ms total)
T2934 000:905 JLINK_IsHalted()  returns FALSE (0000ms, 0641ms total)
T2934 000:907 JLINK_IsHalted()  returns FALSE (0000ms, 0641ms total)
T2934 000:909 JLINK_IsHalted()  returns FALSE (0000ms, 0641ms total)
T2934 000:911 JLINK_IsHalted()  returns FALSE (0000ms, 0641ms total)
T2934 000:917 JLINK_IsHalted()  returns FALSE (0000ms, 0641ms total)
T2934 000:919 JLINK_IsHalted()  returns FALSE (0001ms, 0642ms total)
T2934 000:921 JLINK_IsHalted()  returns FALSE (0001ms, 0642ms total)
T2934 000:923 JLINK_IsHalted()  returns FALSE (0001ms, 0642ms total)
T2934 000:925 JLINK_IsHalted()  returns FALSE (0000ms, 0641ms total)
T2934 000:928 JLINK_IsHalted()  returns FALSE (0001ms, 0642ms total)
T2934 000:930 JLINK_IsHalted()  returns FALSE (0000ms, 0641ms total)
T2934 000:934 JLINK_IsHalted()  returns FALSE (0000ms, 0641ms total)
T2934 000:936 JLINK_IsHalted()  returns FALSE (0000ms, 0641ms total)
T2934 000:938 JLINK_IsHalted()  returns FALSE (0000ms, 0641ms total)
T2934 000:940 JLINK_IsHalted()  returns FALSE (0000ms, 0641ms total)
T2934 000:942 JLINK_IsHalted()  returns FALSE (0000ms, 0641ms total)
T2934 000:949 JLINK_IsHalted()  returns FALSE (0000ms, 0641ms total)
T2934 000:951 JLINK_IsHalted()  returns FALSE (0000ms, 0641ms total)
T2934 000:952 JLINK_IsHalted()  returns FALSE (0000ms, 0641ms total)
T2934 000:955 JLINK_IsHalted()  returns FALSE (0000ms, 0641ms total)
T2934 000:957 JLINK_IsHalted()  returns FALSE (0000ms, 0641ms total)
T2934 000:959 JLINK_IsHalted()  returns FALSE (0000ms, 0641ms total)
T2934 000:961 JLINK_IsHalted()  returns FALSE (0000ms, 0641ms total)
T2934 000:967 JLINK_IsHalted()  returns FALSE (0000ms, 0641ms total)
T2934 000:968 JLINK_IsHalted()  returns FALSE (0000ms, 0641ms total)
T2934 000:970 JLINK_IsHalted()  returns FALSE (0001ms, 0642ms total)
T2934 000:973 JLINK_IsHalted()  returns FALSE (0000ms, 0641ms total)
T2934 000:975 JLINK_IsHalted()  returns FALSE (0000ms, 0641ms total)
T2934 000:977 JLINK_IsHalted()  returns FALSE (0000ms, 0641ms total)
T2934 000:983 JLINK_IsHalted()  returns FALSE (0001ms, 0642ms total)
T2934 000:985 JLINK_IsHalted()  returns FALSE (0001ms, 0642ms total)
T2934 000:987 JLINK_IsHalted()  returns FALSE (0000ms, 0641ms total)
T2934 000:992 JLINK_IsHalted()  returns FALSE (0000ms, 0641ms total)
T2934 000:994 JLINK_IsHalted()  returns FALSE (0000ms, 0641ms total)
T2934 000:996 JLINK_IsHalted()  returns FALSE (0001ms, 0642ms total)
T2934 000:999 JLINK_IsHalted()  returns FALSE (0000ms, 0641ms total)
T2934 001:016 JLINK_IsHalted()  returns FALSE (0001ms, 0642ms total)
T2934 001:018 JLINK_IsHalted()  returns FALSE (0001ms, 0642ms total)
T2934 001:020 JLINK_IsHalted()  returns FALSE (0000ms, 0641ms total)
T2934 001:027 JLINK_IsHalted()  returns FALSE (0000ms, 0641ms total)
T2934 001:029 JLINK_IsHalted()  returns FALSE (0001ms, 0642ms total)
T2934 001:031 JLINK_IsHalted()  returns FALSE (0001ms, 0642ms total)
T2934 001:033 JLINK_IsHalted()  returns FALSE (0001ms, 0642ms total)
T2934 001:035 JLINK_IsHalted()  returns FALSE (0001ms, 0642ms total)
T2934 001:037 JLINK_IsHalted()  returns FALSE (0001ms, 0642ms total)
T2934 001:039 JLINK_IsHalted()  returns FALSE (0001ms, 0642ms total)
T2934 001:044 JLINK_IsHalted()  returns FALSE (0000ms, 0641ms total)
T2934 001:046 JLINK_IsHalted()  returns FALSE (0001ms, 0642ms total)
T2934 001:048 JLINK_IsHalted()  returns FALSE (0001ms, 0642ms total)
T2934 001:050 JLINK_IsHalted()  returns FALSE (0001ms, 0642ms total)
T2934 001:052 JLINK_IsHalted()  returns FALSE (0000ms, 0641ms total)
T2934 001:058 JLINK_IsHalted()  returns FALSE (0001ms, 0642ms total)
T2934 001:060 JLINK_IsHalted()  returns FALSE (0000ms, 0641ms total)
T2934 001:062 JLINK_IsHalted()  returns FALSE (0001ms, 0642ms total)
T2934 001:064 JLINK_IsHalted()  returns FALSE (0000ms, 0641ms total)
T2934 001:066 JLINK_IsHalted()  returns FALSE (0000ms, 0641ms total)
T2934 001:071 JLINK_IsHalted()  returns FALSE (0000ms, 0641ms total)
T2934 001:073 JLINK_IsHalted()  returns FALSE (0001ms, 0642ms total)
T2934 001:075 JLINK_IsHalted()  returns FALSE (0000ms, 0641ms total)
T2934 001:077 JLINK_IsHalted()  returns FALSE (0001ms, 0642ms total)
T2934 001:079 JLINK_IsHalted()  returns FALSE (0000ms, 0641ms total)
T2934 001:081 JLINK_IsHalted()  returns FALSE (0000ms, 0641ms total)
T2934 001:083 JLINK_IsHalted()  returns FALSE (0001ms, 0642ms total)
T2934 001:085 JLINK_IsHalted()  returns FALSE (0000ms, 0641ms total)
T2934 001:087 JLINK_IsHalted()  returns FALSE (0000ms, 0641ms total)
T2934 001:091 JLINK_IsHalted()  returns FALSE (0000ms, 0641ms total)
T2934 001:094 JLINK_IsHalted()  returns FALSE (0000ms, 0641ms total)
T2934 001:096 JLINK_IsHalted()  returns FALSE (0000ms, 0641ms total)
T2934 001:098 JLINK_IsHalted()  returns FALSE (0000ms, 0641ms total)
T2934 001:100 JLINK_IsHalted()  returns FALSE (0000ms, 0641ms total)
T2934 001:102 JLINK_IsHalted()  returns FALSE (0000ms, 0641ms total)
T2934 001:107 JLINK_IsHalted()  returns FALSE (0000ms, 0641ms total)
T2934 001:109 JLINK_IsHalted()  returns FALSE (0000ms, 0641ms total)
T2934 001:111 JLINK_IsHalted()  returns FALSE (0000ms, 0641ms total)
T2934 001:112 JLINK_IsHalted()  returns FALSE (0000ms, 0641ms total)
T2934 001:117 JLINK_IsHalted()  returns FALSE (0000ms, 0641ms total)
T2934 001:119 JLINK_IsHalted()  returns FALSE (0000ms, 0641ms total)
T2934 001:121 JLINK_IsHalted()  returns FALSE (0000ms, 0641ms total)
T2934 001:123 JLINK_IsHalted()  returns FALSE (0000ms, 0641ms total)
T2934 001:125 JLINK_IsHalted()  returns FALSE (0002ms, 0643ms total)
T2934 001:130 JLINK_IsHalted()  returns FALSE (0001ms, 0642ms total)
T2934 001:140 JLINK_IsHalted() -- CPU_ReadMem(2 bytes @ 0x20000000)  returns TRUE (0003ms, 0644ms total)
T2934 001:143 JLINK_ReadReg(R15 (PC))  returns 0x20000000 (0000ms, 0641ms total)
T2934 001:143 JLINK_ClrBPEx(BPHandle = 0x00000003)  returns 0x00 (0000ms, 0641ms total)
T2934 001:143 JLINK_ReadReg(R0)  returns 0x00000000 (0000ms, 0641ms total)
T2934 001:143 JLINK_WriteReg(R0, 0x00000001)  returns 0x00 (0000ms, 0641ms total)
T2934 001:143 JLINK_WriteReg(R1, 0x00004000)  returns 0x00 (0000ms, 0641ms total)
T2934 001:143 JLINK_WriteReg(R2, 0x000000FF)  returns 0x00 (0000ms, 0641ms total)
T2934 001:143 JLINK_WriteReg(R3, 0x00000000)  returns 0x00 (0000ms, 0641ms total)
T2934 001:143 JLINK_WriteReg(R4, 0x00000000)  returns 0x00 (0000ms, 0641ms total)
T2934 001:143 JLINK_WriteReg(R5, 0x00000000)  returns 0x00 (0000ms, 0641ms total)
T2934 001:143 JLINK_WriteReg(R6, 0x00000000)  returns 0x00 (0001ms, 0642ms total)
T2934 001:144 JLINK_WriteReg(R7, 0x00000000)  returns 0x00 (0000ms, 0642ms total)
T2934 001:144 JLINK_WriteReg(R8, 0x00000000)  returns 0x00 (0000ms, 0642ms total)
T2934 001:144 JLINK_WriteReg(R9, 0x2000017C)  returns 0x00 (0000ms, 0642ms total)
T2934 001:144 JLINK_WriteReg(R10, 0x00000000)  returns 0x00 (0000ms, 0642ms total)
T2934 001:144 JLINK_WriteReg(R11, 0x00000000)  returns 0x00 (0000ms, 0642ms total)
T2934 001:144 JLINK_WriteReg(R12, 0x00000000)  returns 0x00 (0000ms, 0642ms total)
T2934 001:144 JLINK_WriteReg(R13 (SP), 0x20001000)  returns 0x00 (0000ms, 0642ms total)
T2934 001:144 JLINK_WriteReg(R14, 0x20000001)  returns 0x00 (0000ms, 0642ms total)
T2934 001:144 JLINK_WriteReg(R15 (PC), 0x20000082)  returns 0x00 (0000ms, 0642ms total)
T2934 001:144 JLINK_WriteReg(XPSR, 0x01000000)  returns 0x00 (0000ms, 0642ms total)
T2934 001:144 JLINK_WriteReg(MSP, 0x20001000)  returns 0x00 (0000ms, 0642ms total)
T2934 001:144 JLINK_WriteReg(PSP, 0x20001000)  returns 0x00 (0000ms, 0642ms total)
T2934 001:144 JLINK_WriteReg(CFBP, 0x00000000)  returns 0x00 (0000ms, 0642ms total)
T2934 001:144 JLINK_SetBPEx(Addr = 0x20000000, Type = 0xFFFFFFF2)  returns 0x00000004 (0000ms, 0642ms total)
T2934 001:144 JLINK_Go() (0001ms, 0643ms total)
T2934 001:145 JLINK_IsHalted() -- CPU_ReadMem(2 bytes @ 0x20000000)  returns TRUE (0003ms, 0646ms total)
T2934 001:148 JLINK_ReadReg(R15 (PC))  returns 0x20000000 (0000ms, 0643ms total)
T2934 001:149 JLINK_ClrBPEx(BPHandle = 0x00000004)  returns 0x00 (0000ms, 0643ms total)
T2934 001:149 JLINK_ReadReg(R0)  returns 0x00000000 (0000ms, 0643ms total)
T2934 001:207 JLINK_WriteMem(0x20000000, 0x0180 Bytes, ...) - Data: 00 BE 0A E0 0D 78 2D 06 68 40 08 24 40 00 00 D3 ... -- CPU_WriteMem(384 bytes @ 0x20000000)  returns 0x180 (0003ms, 0646ms total)
T2934 001:210 JLINK_WriteReg(R0, 0x08000000)  returns 0x00 (0000ms, 0646ms total)
T2934 001:210 JLINK_WriteReg(R1, 0x007A1200)  returns 0x00 (0000ms, 0646ms total)
T2934 001:210 JLINK_WriteReg(R2, 0x00000002)  returns 0x00 (0000ms, 0646ms total)
T2934 001:210 JLINK_WriteReg(R3, 0x00000000)  returns 0x00 (0000ms, 0646ms total)
T2934 001:210 JLINK_WriteReg(R4, 0x00000000)  returns 0x00 (0000ms, 0646ms total)
T2934 001:210 JLINK_WriteReg(R5, 0x00000000)  returns 0x00 (0000ms, 0646ms total)
T2934 001:210 JLINK_WriteReg(R6, 0x00000000)  returns 0x00 (0000ms, 0646ms total)
T2934 001:210 JLINK_WriteReg(R7, 0x00000000)  returns 0x00 (0000ms, 0646ms total)
T2934 001:210 JLINK_WriteReg(R8, 0x00000000)  returns 0x00 (0000ms, 0646ms total)
T2934 001:210 JLINK_WriteReg(R9, 0x2000017C)  returns 0x00 (0000ms, 0646ms total)
T2934 001:210 JLINK_WriteReg(R10, 0x00000000)  returns 0x00 (0000ms, 0646ms total)
T2934 001:210 JLINK_WriteReg(R11, 0x00000000)  returns 0x00 (0000ms, 0646ms total)
T2934 001:210 JLINK_WriteReg(R12, 0x00000000)  returns 0x00 (0000ms, 0646ms total)
T2934 001:210 JLINK_WriteReg(R13 (SP), 0x20001000)  returns 0x00 (0000ms, 0646ms total)
T2934 001:210 JLINK_WriteReg(R14, 0x20000001)  returns 0x00 (0000ms, 0646ms total)
T2934 001:210 JLINK_WriteReg(R15 (PC), 0x20000054)  returns 0x00 (0000ms, 0646ms total)
T2934 001:210 JLINK_WriteReg(XPSR, 0x01000000)  returns 0x00 (0000ms, 0646ms total)
T2934 001:210 JLINK_WriteReg(MSP, 0x20001000)  returns 0x00 (0000ms, 0646ms total)
T2934 001:210 JLINK_WriteReg(PSP, 0x20001000)  returns 0x00 (0000ms, 0646ms total)
T2934 001:210 JLINK_WriteReg(CFBP, 0x00000000)  returns 0x00 (0000ms, 0646ms total)
T2934 001:210 JLINK_SetBPEx(Addr = 0x20000000, Type = 0xFFFFFFF2) -- CPU_ReadMem(2 bytes @ 0x20000000)  returns 0x00000005 (0001ms, 0647ms total)
T2934 001:211 JLINK_Go() -- CPU_WriteMem(2 bytes @ 0x20000000) (0002ms, 0649ms total)
T2934 001:213 JLINK_IsHalted() -- CPU_ReadMem(2 bytes @ 0x20000000)  returns TRUE (0003ms, 0652ms total)
T2934 001:216 JLINK_ReadReg(R15 (PC))  returns 0x20000000 (0000ms, 0649ms total)
T2934 001:216 JLINK_ClrBPEx(BPHandle = 0x00000005)  returns 0x00 (0000ms, 0649ms total)
T2934 001:216 JLINK_ReadReg(R0)  returns 0x00000000 (0000ms, 0649ms total)
T2934 001:216 JLINK_WriteMem(0x20000180, 0x0400 Bytes, ...) - Data: 88 04 00 20 41 02 00 08 81 08 00 08 79 08 00 08 ... -- CPU_WriteMem(1024 bytes @ 0x20000180)  returns 0x400 (0007ms, 0656ms total)
T2934 001:223 JLINK_WriteReg(R0, 0x08000000)  returns 0x00 (0000ms, 0656ms total)
T2934 001:223 JLINK_WriteReg(R1, 0x00000400)  returns 0x00 (0000ms, 0656ms total)
T2934 001:223 JLINK_WriteReg(R2, 0x20000180)  returns 0x00 (0000ms, 0656ms total)
T2934 001:223 JLINK_WriteReg(R3, 0x00000000)  returns 0x00 (0000ms, 0656ms total)
T2934 001:223 JLINK_WriteReg(R4, 0x00000000)  returns 0x00 (0000ms, 0656ms total)
T2934 001:223 JLINK_WriteReg(R5, 0x00000000)  returns 0x00 (0000ms, 0656ms total)
T2934 001:223 JLINK_WriteReg(R6, 0x00000000)  returns 0x00 (0000ms, 0656ms total)
T2934 001:223 JLINK_WriteReg(R7, 0x00000000)  returns 0x00 (0000ms, 0656ms total)
T2934 001:223 JLINK_WriteReg(R8, 0x00000000)  returns 0x00 (0000ms, 0656ms total)
T2934 001:223 JLINK_WriteReg(R9, 0x2000017C)  returns 0x00 (0000ms, 0656ms total)
T2934 001:223 JLINK_WriteReg(R10, 0x00000000)  returns 0x00 (0000ms, 0656ms total)
T2934 001:223 JLINK_WriteReg(R11, 0x00000000)  returns 0x00 (0000ms, 0656ms total)
T2934 001:223 JLINK_WriteReg(R12, 0x00000000)  returns 0x00 (0000ms, 0656ms total)
T2934 001:223 JLINK_WriteReg(R13 (SP), 0x20001000)  returns 0x00 (0000ms, 0656ms total)
T2934 001:223 JLINK_WriteReg(R14, 0x20000001)  returns 0x00 (0000ms, 0656ms total)
T2934 001:223 JLINK_WriteReg(R15 (PC), 0x20000108)  returns 0x00 (0000ms, 0656ms total)
T2934 001:223 JLINK_WriteReg(XPSR, 0x01000000)  returns 0x00 (0000ms, 0656ms total)
T2934 001:223 JLINK_WriteReg(MSP, 0x20001000)  returns 0x00 (0000ms, 0656ms total)
T2934 001:223 JLINK_WriteReg(PSP, 0x20001000)  returns 0x00 (0000ms, 0656ms total)
T2934 001:223 JLINK_WriteReg(CFBP, 0x00000000)  returns 0x00 (0000ms, 0656ms total)
T2934 001:223 JLINK_SetBPEx(Addr = 0x20000000, Type = 0xFFFFFFF2)  returns 0x00000006 (0000ms, 0656ms total)
T2934 001:223 JLINK_Go() (0002ms, 0658ms total)
T2934 001:225 JLINK_IsHalted()  returns FALSE (0001ms, 0659ms total)
T2934 001:238 JLINK_IsHalted() -- CPU_ReadMem(2 bytes @ 0x20000000)  returns TRUE (0003ms, 0661ms total)
T2934 001:241 JLINK_ReadReg(R15 (PC))  returns 0x20000000 (0000ms, 0658ms total)
T2934 001:241 JLINK_ClrBPEx(BPHandle = 0x00000006)  returns 0x00 (0000ms, 0658ms total)
T2934 001:241 JLINK_ReadReg(R0)  returns 0x00000000 (0000ms, 0658ms total)
T2934 001:242 JLINK_WriteMem(0x20000180, 0x0400 Bytes, ...) - Data: 01 2F 0A D0 2E 2E 08 D1 20 46 E1 68 88 47 7F 1C ... -- CPU_WriteMem(1024 bytes @ 0x20000180)  returns 0x400 (0007ms, 0665ms total)
T2934 001:249 JLINK_WriteReg(R0, 0x08000400)  returns 0x00 (0000ms, 0665ms total)
T2934 001:249 JLINK_WriteReg(R1, 0x00000400)  returns 0x00 (0000ms, 0665ms total)
T2934 001:249 JLINK_WriteReg(R2, 0x20000180)  returns 0x00 (0000ms, 0665ms total)
T2934 001:249 JLINK_WriteReg(R3, 0x00000000)  returns 0x00 (0000ms, 0665ms total)
T2934 001:249 JLINK_WriteReg(R4, 0x00000000)  returns 0x00 (0000ms, 0665ms total)
T2934 001:249 JLINK_WriteReg(R5, 0x00000000)  returns 0x00 (0000ms, 0665ms total)
T2934 001:249 JLINK_WriteReg(R6, 0x00000000)  returns 0x00 (0000ms, 0665ms total)
T2934 001:249 JLINK_WriteReg(R7, 0x00000000)  returns 0x00 (0000ms, 0665ms total)
T2934 001:249 JLINK_WriteReg(R8, 0x00000000)  returns 0x00 (0000ms, 0665ms total)
T2934 001:249 JLINK_WriteReg(R9, 0x2000017C)  returns 0x00 (0000ms, 0665ms total)
T2934 001:249 JLINK_WriteReg(R10, 0x00000000)  returns 0x00 (0000ms, 0665ms total)
T2934 001:249 JLINK_WriteReg(R11, 0x00000000)  returns 0x00 (0000ms, 0665ms total)
T2934 001:249 JLINK_WriteReg(R12, 0x00000000)  returns 0x00 (0000ms, 0665ms total)
T2934 001:249 JLINK_WriteReg(R13 (SP), 0x20001000)  returns 0x00 (0000ms, 0665ms total)
T2934 001:249 JLINK_WriteReg(R14, 0x20000001)  returns 0x00 (0000ms, 0665ms total)
T2934 001:249 JLINK_WriteReg(R15 (PC), 0x20000108)  returns 0x00 (0000ms, 0665ms total)
T2934 001:249 JLINK_WriteReg(XPSR, 0x01000000)  returns 0x00 (0000ms, 0665ms total)
T2934 001:249 JLINK_WriteReg(MSP, 0x20001000)  returns 0x00 (0000ms, 0665ms total)
T2934 001:249 JLINK_WriteReg(PSP, 0x20001000)  returns 0x00 (0000ms, 0665ms total)
T2934 001:249 JLINK_WriteReg(CFBP, 0x00000000)  returns 0x00 (0000ms, 0665ms total)
T2934 001:249 JLINK_SetBPEx(Addr = 0x20000000, Type = 0xFFFFFFF2)  returns 0x00000007 (0000ms, 0665ms total)
T2934 001:249 JLINK_Go() (0002ms, 0667ms total)
T2934 001:251 JLINK_IsHalted()  returns FALSE (0001ms, 0668ms total)
T2934 001:263 JLINK_IsHalted() -- CPU_ReadMem(2 bytes @ 0x20000000)  returns TRUE (0003ms, 0670ms total)
T2934 001:266 JLINK_ReadReg(R15 (PC))  returns 0x20000000 (0000ms, 0667ms total)
T2934 001:266 JLINK_ClrBPEx(BPHandle = 0x00000007)  returns 0x00 (0000ms, 0667ms total)
T2934 001:266 JLINK_ReadReg(R0)  returns 0x00000000 (0000ms, 0667ms total)
T2934 001:267 JLINK_WriteMem(0x20000180, 0x0400 Bytes, ...) - Data: 8E 40 B5 43 45 60 45 68 96 79 8E 40 B6 B2 35 43 ... -- CPU_WriteMem(1024 bytes @ 0x20000180)  returns 0x400 (0007ms, 0674ms total)
T2934 001:274 JLINK_WriteReg(R0, 0x08000800)  returns 0x00 (0000ms, 0674ms total)
T2934 001:274 JLINK_WriteReg(R1, 0x00000400)  returns 0x00 (0000ms, 0674ms total)
T2934 001:274 JLINK_WriteReg(R2, 0x20000180)  returns 0x00 (0000ms, 0674ms total)
T2934 001:274 JLINK_WriteReg(R3, 0x00000000)  returns 0x00 (0000ms, 0674ms total)
T2934 001:274 JLINK_WriteReg(R4, 0x00000000)  returns 0x00 (0000ms, 0674ms total)
T2934 001:274 JLINK_WriteReg(R5, 0x00000000)  returns 0x00 (0000ms, 0674ms total)
T2934 001:274 JLINK_WriteReg(R6, 0x00000000)  returns 0x00 (0000ms, 0674ms total)
T2934 001:274 JLINK_WriteReg(R7, 0x00000000)  returns 0x00 (0000ms, 0674ms total)
T2934 001:274 JLINK_WriteReg(R8, 0x00000000)  returns 0x00 (0000ms, 0674ms total)
T2934 001:274 JLINK_WriteReg(R9, 0x2000017C)  returns 0x00 (0000ms, 0674ms total)
T2934 001:274 JLINK_WriteReg(R10, 0x00000000)  returns 0x00 (0000ms, 0674ms total)
T2934 001:274 JLINK_WriteReg(R11, 0x00000000)  returns 0x00 (0000ms, 0674ms total)
T2934 001:274 JLINK_WriteReg(R12, 0x00000000)  returns 0x00 (0000ms, 0674ms total)
T2934 001:274 JLINK_WriteReg(R13 (SP), 0x20001000)  returns 0x00 (0000ms, 0674ms total)
T2934 001:274 JLINK_WriteReg(R14, 0x20000001)  returns 0x00 (0000ms, 0674ms total)
T2934 001:274 JLINK_WriteReg(R15 (PC), 0x20000108)  returns 0x00 (0000ms, 0674ms total)
T2934 001:274 JLINK_WriteReg(XPSR, 0x01000000)  returns 0x00 (0000ms, 0674ms total)
T2934 001:274 JLINK_WriteReg(MSP, 0x20001000)  returns 0x00 (0000ms, 0674ms total)
T2934 001:274 JLINK_WriteReg(PSP, 0x20001000)  returns 0x00 (0000ms, 0674ms total)
T2934 001:274 JLINK_WriteReg(CFBP, 0x00000000)  returns 0x00 (0000ms, 0674ms total)
T2934 001:274 JLINK_SetBPEx(Addr = 0x20000000, Type = 0xFFFFFFF2)  returns 0x00000008 (0000ms, 0674ms total)
T2934 001:274 JLINK_Go() (0002ms, 0676ms total)
T2934 001:276 JLINK_IsHalted()  returns FALSE (0000ms, 0676ms total)
T2934 001:283 JLINK_IsHalted() -- CPU_ReadMem(2 bytes @ 0x20000000)  returns TRUE (0003ms, 0679ms total)
T2934 001:286 JLINK_ReadReg(R15 (PC))  returns 0x20000000 (0000ms, 0676ms total)
T2934 001:286 JLINK_ClrBPEx(BPHandle = 0x00000008)  returns 0x00 (0000ms, 0676ms total)
T2934 001:286 JLINK_ReadReg(R0)  returns 0x00000000 (0001ms, 0677ms total)
T2934 001:287 JLINK_WriteMem(0x20000180, 0x0400 Bytes, ...) - Data: 00 68 40 F4 A0 50 08 60 16 48 09 1F 08 60 08 1F ... -- CPU_WriteMem(1024 bytes @ 0x20000180)  returns 0x400 (0007ms, 0684ms total)
T2934 001:294 JLINK_WriteReg(R0, 0x08000C00)  returns 0x00 (0000ms, 0684ms total)
T2934 001:294 JLINK_WriteReg(R1, 0x00000400)  returns 0x00 (0000ms, 0684ms total)
T2934 001:294 JLINK_WriteReg(R2, 0x20000180)  returns 0x00 (0000ms, 0684ms total)
T2934 001:294 JLINK_WriteReg(R3, 0x00000000)  returns 0x00 (0000ms, 0684ms total)
T2934 001:294 JLINK_WriteReg(R4, 0x00000000)  returns 0x00 (0000ms, 0684ms total)
T2934 001:294 JLINK_WriteReg(R5, 0x00000000)  returns 0x00 (0000ms, 0684ms total)
T2934 001:294 JLINK_WriteReg(R6, 0x00000000)  returns 0x00 (0000ms, 0684ms total)
T2934 001:294 JLINK_WriteReg(R7, 0x00000000)  returns 0x00 (0000ms, 0684ms total)
T2934 001:294 JLINK_WriteReg(R8, 0x00000000)  returns 0x00 (0000ms, 0684ms total)
T2934 001:294 JLINK_WriteReg(R9, 0x2000017C)  returns 0x00 (0000ms, 0684ms total)
T2934 001:294 JLINK_WriteReg(R10, 0x00000000)  returns 0x00 (0000ms, 0684ms total)
T2934 001:294 JLINK_WriteReg(R11, 0x00000000)  returns 0x00 (0000ms, 0684ms total)
T2934 001:294 JLINK_WriteReg(R12, 0x00000000)  returns 0x00 (0000ms, 0684ms total)
T2934 001:294 JLINK_WriteReg(R13 (SP), 0x20001000)  returns 0x00 (0000ms, 0684ms total)
T2934 001:294 JLINK_WriteReg(R14, 0x20000001)  returns 0x00 (0000ms, 0684ms total)
T2934 001:294 JLINK_WriteReg(R15 (PC), 0x20000108)  returns 0x00 (0000ms, 0684ms total)
T2934 001:294 JLINK_WriteReg(XPSR, 0x01000000)  returns 0x00 (0000ms, 0684ms total)
T2934 001:294 JLINK_WriteReg(MSP, 0x20001000)  returns 0x00 (0000ms, 0684ms total)
T2934 001:294 JLINK_WriteReg(PSP, 0x20001000)  returns 0x00 (0000ms, 0684ms total)
T2934 001:294 JLINK_WriteReg(CFBP, 0x00000000)  returns 0x00 (0000ms, 0684ms total)
T2934 001:294 JLINK_SetBPEx(Addr = 0x20000000, Type = 0xFFFFFFF2)  returns 0x00000009 (0000ms, 0684ms total)
T2934 001:294 JLINK_Go() (0002ms, 0686ms total)
T2934 001:296 JLINK_IsHalted()  returns FALSE (0001ms, 0687ms total)
T2934 001:300 JLINK_IsHalted()  returns FALSE (0001ms, 0687ms total)
T2934 001:302 JLINK_IsHalted() -- CPU_ReadMem(2 bytes @ 0x20000000)  returns TRUE (0003ms, 0689ms total)
T2934 001:305 JLINK_ReadReg(R15 (PC))  returns 0x20000000 (0000ms, 0686ms total)
T2934 001:305 JLINK_ClrBPEx(BPHandle = 0x00000009)  returns 0x00 (0000ms, 0686ms total)
T2934 001:305 JLINK_ReadReg(R0)  returns 0x00000000 (0000ms, 0686ms total)
T2934 001:306 JLINK_WriteMem(0x20000180, 0x0400 Bytes, ...) - Data: 01 04 10 E0 0F E0 44 F0 10 04 0C E0 02 98 C0 F3 ... -- CPU_WriteMem(1024 bytes @ 0x20000180)  returns 0x400 (0007ms, 0693ms total)
T2934 001:313 JLINK_WriteReg(R0, 0x08001000)  returns 0x00 (0000ms, 0693ms total)
T2934 001:313 JLINK_WriteReg(R1, 0x00000248)  returns 0x00 (0000ms, 0693ms total)
T2934 001:313 JLINK_WriteReg(R2, 0x20000180)  returns 0x00 (0000ms, 0693ms total)
T2934 001:313 JLINK_WriteReg(R3, 0x00000000)  returns 0x00 (0000ms, 0693ms total)
T2934 001:313 JLINK_WriteReg(R4, 0x00000000)  returns 0x00 (0000ms, 0693ms total)
T2934 001:313 JLINK_WriteReg(R5, 0x00000000)  returns 0x00 (0000ms, 0693ms total)
T2934 001:313 JLINK_WriteReg(R6, 0x00000000)  returns 0x00 (0000ms, 0693ms total)
T2934 001:313 JLINK_WriteReg(R7, 0x00000000)  returns 0x00 (0000ms, 0693ms total)
T2934 001:313 JLINK_WriteReg(R8, 0x00000000)  returns 0x00 (0000ms, 0693ms total)
T2934 001:313 JLINK_WriteReg(R9, 0x2000017C)  returns 0x00 (0000ms, 0693ms total)
T2934 001:313 JLINK_WriteReg(R10, 0x00000000)  returns 0x00 (0000ms, 0693ms total)
T2934 001:313 JLINK_WriteReg(R11, 0x00000000)  returns 0x00 (0000ms, 0693ms total)
T2934 001:313 JLINK_WriteReg(R12, 0x00000000)  returns 0x00 (0000ms, 0693ms total)
T2934 001:313 JLINK_WriteReg(R13 (SP), 0x20001000)  returns 0x00 (0000ms, 0693ms total)
T2934 001:314 JLINK_WriteReg(R14, 0x20000001)  returns 0x00 (0000ms, 0693ms total)
T2934 001:314 JLINK_WriteReg(R15 (PC), 0x20000108)  returns 0x00 (0000ms, 0693ms total)
T2934 001:314 JLINK_WriteReg(XPSR, 0x01000000)  returns 0x00 (0000ms, 0693ms total)
T2934 001:314 JLINK_WriteReg(MSP, 0x20001000)  returns 0x00 (0000ms, 0693ms total)
T2934 001:314 JLINK_WriteReg(PSP, 0x20001000)  returns 0x00 (0000ms, 0693ms total)
T2934 001:314 JLINK_WriteReg(CFBP, 0x00000000)  returns 0x00 (0000ms, 0693ms total)
T2934 001:314 JLINK_SetBPEx(Addr = 0x20000000, Type = 0xFFFFFFF2)  returns 0x0000000A (0000ms, 0693ms total)
T2934 001:314 JLINK_Go() (0002ms, 0695ms total)
T2934 001:316 JLINK_IsHalted()  returns FALSE (0000ms, 0695ms total)
T2934 001:326 JLINK_IsHalted() -- CPU_ReadMem(2 bytes @ 0x20000000)  returns TRUE (0003ms, 0698ms total)
T2934 001:329 JLINK_ReadReg(R15 (PC))  returns 0x20000000 (0000ms, 0695ms total)
T2934 001:329 JLINK_ClrBPEx(BPHandle = 0x0000000A)  returns 0x00 (0000ms, 0695ms total)
T2934 001:329 JLINK_ReadReg(R0)  returns 0x00000000 (0000ms, 0695ms total)
T2934 001:329 JLINK_WriteReg(R0, 0x00000002)  returns 0x00 (0000ms, 0695ms total)
T2934 001:329 JLINK_WriteReg(R1, 0x00000248)  returns 0x00 (0000ms, 0695ms total)
T2934 001:329 JLINK_WriteReg(R2, 0x20000180)  returns 0x00 (0000ms, 0695ms total)
T2934 001:329 JLINK_WriteReg(R3, 0x00000000)  returns 0x00 (0000ms, 0695ms total)
T2934 001:329 JLINK_WriteReg(R4, 0x00000000)  returns 0x00 (0000ms, 0695ms total)
T2934 001:329 JLINK_WriteReg(R5, 0x00000000)  returns 0x00 (0000ms, 0695ms total)
T2934 001:329 JLINK_WriteReg(R6, 0x00000000)  returns 0x00 (0000ms, 0695ms total)
T2934 001:329 JLINK_WriteReg(R7, 0x00000000)  returns 0x00 (0000ms, 0695ms total)
T2934 001:329 JLINK_WriteReg(R8, 0x00000000)  returns 0x00 (0000ms, 0695ms total)
T2934 001:329 JLINK_WriteReg(R9, 0x2000017C)  returns 0x00 (0000ms, 0695ms total)
T2934 001:329 JLINK_WriteReg(R10, 0x00000000)  returns 0x00 (0000ms, 0695ms total)
T2934 001:329 JLINK_WriteReg(R11, 0x00000000)  returns 0x00 (0000ms, 0695ms total)
T2934 001:329 JLINK_WriteReg(R12, 0x00000000)  returns 0x00 (0000ms, 0695ms total)
T2934 001:329 JLINK_WriteReg(R13 (SP), 0x20001000)  returns 0x00 (0000ms, 0695ms total)
T2934 001:329 JLINK_WriteReg(R14, 0x20000001)  returns 0x00 (0000ms, 0695ms total)
T2934 001:329 JLINK_WriteReg(R15 (PC), 0x20000082)  returns 0x00 (0000ms, 0695ms total)
T2934 001:329 JLINK_WriteReg(XPSR, 0x01000000)  returns 0x00 (0000ms, 0695ms total)
T2934 001:329 JLINK_WriteReg(MSP, 0x20001000)  returns 0x00 (0000ms, 0695ms total)
T2934 001:329 JLINK_WriteReg(PSP, 0x20001000)  returns 0x00 (0000ms, 0695ms total)
T2934 001:329 JLINK_WriteReg(CFBP, 0x00000000)  returns 0x00 (0000ms, 0695ms total)
T2934 001:329 JLINK_SetBPEx(Addr = 0x20000000, Type = 0xFFFFFFF2)  returns 0x0000000B (0000ms, 0695ms total)
T2934 001:329 JLINK_Go() (0002ms, 0697ms total)
T2934 001:331 JLINK_IsHalted() -- CPU_ReadMem(2 bytes @ 0x20000000)  returns TRUE (0003ms, 0700ms total)
T2934 001:334 JLINK_ReadReg(R15 (PC))  returns 0x20000000 (0000ms, 0697ms total)
T2934 001:334 JLINK_ClrBPEx(BPHandle = 0x0000000B)  returns 0x00 (0000ms, 0697ms total)
T2934 001:334 JLINK_ReadReg(R0)  returns 0x00000000 (0000ms, 0697ms total)
T2934 001:394 JLINK_WriteMem(0x20000000, 0x0180 Bytes, ...) - Data: 00 BE 0A E0 0D 78 2D 06 68 40 08 24 40 00 00 D3 ... -- CPU_WriteMem(384 bytes @ 0x20000000)  returns 0x180 (0004ms, 0701ms total)
T2934 001:398 JLINK_WriteReg(R0, 0x08000000)  returns 0x00 (0000ms, 0701ms total)
T2934 001:398 JLINK_WriteReg(R1, 0x007A1200)  returns 0x00 (0000ms, 0701ms total)
T2934 001:398 JLINK_WriteReg(R2, 0x00000003)  returns 0x00 (0000ms, 0701ms total)
T2934 001:398 JLINK_WriteReg(R3, 0x00000000)  returns 0x00 (0000ms, 0701ms total)
T2934 001:398 JLINK_WriteReg(R4, 0x00000000)  returns 0x00 (0000ms, 0701ms total)
T2934 001:398 JLINK_WriteReg(R5, 0x00000000)  returns 0x00 (0000ms, 0701ms total)
T2934 001:398 JLINK_WriteReg(R6, 0x00000000)  returns 0x00 (0000ms, 0701ms total)
T2934 001:398 JLINK_WriteReg(R7, 0x00000000)  returns 0x00 (0000ms, 0701ms total)
T2934 001:398 JLINK_WriteReg(R8, 0x00000000)  returns 0x00 (0000ms, 0701ms total)
T2934 001:398 JLINK_WriteReg(R9, 0x2000017C)  returns 0x00 (0000ms, 0701ms total)
T2934 001:398 JLINK_WriteReg(R10, 0x00000000)  returns 0x00 (0000ms, 0701ms total)
T2934 001:398 JLINK_WriteReg(R11, 0x00000000)  returns 0x00 (0000ms, 0701ms total)
T2934 001:398 JLINK_WriteReg(R12, 0x00000000)  returns 0x00 (0000ms, 0701ms total)
T2934 001:398 JLINK_WriteReg(R13 (SP), 0x20001000)  returns 0x00 (0000ms, 0701ms total)
T2934 001:398 JLINK_WriteReg(R14, 0x20000001)  returns 0x00 (0000ms, 0701ms total)
T2934 001:398 JLINK_WriteReg(R15 (PC), 0x20000054)  returns 0x00 (0000ms, 0701ms total)
T2934 001:398 JLINK_WriteReg(XPSR, 0x01000000)  returns 0x00 (0000ms, 0701ms total)
T2934 001:398 JLINK_WriteReg(MSP, 0x20001000)  returns 0x00 (0000ms, 0701ms total)
T2934 001:398 JLINK_WriteReg(PSP, 0x20001000)  returns 0x00 (0000ms, 0701ms total)
T2934 001:398 JLINK_WriteReg(CFBP, 0x00000000)  returns 0x00 (0000ms, 0701ms total)
T2934 001:398 JLINK_SetBPEx(Addr = 0x20000000, Type = 0xFFFFFFF2) -- CPU_ReadMem(2 bytes @ 0x20000000)  returns 0x0000000C (0001ms, 0702ms total)
T2934 001:399 JLINK_Go() -- CPU_WriteMem(2 bytes @ 0x20000000) (0002ms, 0704ms total)
T2934 001:401 JLINK_IsHalted() -- CPU_ReadMem(2 bytes @ 0x20000000)  returns TRUE (0004ms, 0708ms total)
T2934 001:405 JLINK_ReadReg(R15 (PC))  returns 0x20000000 (0000ms, 0704ms total)
T2934 001:405 JLINK_ClrBPEx(BPHandle = 0x0000000C)  returns 0x00 (0000ms, 0704ms total)
T2934 001:405 JLINK_ReadReg(R0)  returns 0x00000000 (0000ms, 0704ms total)
T2934 001:405 JLINK_WriteReg(R0, 0xFFFFFFFF)  returns 0x00 (0000ms, 0704ms total)
T2934 001:405 JLINK_WriteReg(R1, 0x08000000)  returns 0x00 (0000ms, 0704ms total)
T2934 001:405 JLINK_WriteReg(R2, 0x00001248)  returns 0x00 (0000ms, 0704ms total)
T2934 001:405 JLINK_WriteReg(R3, 0x04C11DB7)  returns 0x00 (0000ms, 0704ms total)
T2934 001:405 JLINK_WriteReg(R4, 0x00000000)  returns 0x00 (0000ms, 0704ms total)
T2934 001:405 JLINK_WriteReg(R5, 0x00000000)  returns 0x00 (0000ms, 0704ms total)
T2934 001:405 JLINK_WriteReg(R6, 0x00000000)  returns 0x00 (0000ms, 0704ms total)
T2934 001:405 JLINK_WriteReg(R7, 0x00000000)  returns 0x00 (0000ms, 0704ms total)
T2934 001:405 JLINK_WriteReg(R8, 0x00000000)  returns 0x00 (0000ms, 0704ms total)
T2934 001:405 JLINK_WriteReg(R9, 0x2000017C)  returns 0x00 (0000ms, 0704ms total)
T2934 001:405 JLINK_WriteReg(R10, 0x00000000)  returns 0x00 (0001ms, 0705ms total)
T2934 001:406 JLINK_WriteReg(R11, 0x00000000)  returns 0x00 (0000ms, 0705ms total)
T2934 001:406 JLINK_WriteReg(R12, 0x00000000)  returns 0x00 (0000ms, 0705ms total)
T2934 001:406 JLINK_WriteReg(R13 (SP), 0x20001000)  returns 0x00 (0000ms, 0705ms total)
T2934 001:406 JLINK_WriteReg(R14, 0x20000001)  returns 0x00 (0000ms, 0705ms total)
T2934 001:406 JLINK_WriteReg(R15 (PC), 0x20000002)  returns 0x00 (0000ms, 0705ms total)
T2934 001:406 JLINK_WriteReg(XPSR, 0x01000000)  returns 0x00 (0000ms, 0705ms total)
T2934 001:406 JLINK_WriteReg(MSP, 0x20001000)  returns 0x00 (0000ms, 0705ms total)
T2934 001:406 JLINK_WriteReg(PSP, 0x20001000)  returns 0x00 (0000ms, 0705ms total)
T2934 001:406 JLINK_WriteReg(CFBP, 0x00000000)  returns 0x00 (0000ms, 0705ms total)
T2934 001:406 JLINK_SetBPEx(Addr = 0x20000000, Type = 0xFFFFFFF2)  returns 0x0000000D (0000ms, 0705ms total)
T2934 001:406 JLINK_Go() (0001ms, 0706ms total)
T2934 001:408 JLINK_IsHalted()  returns FALSE (0000ms, 0707ms total)
T2934 001:421 JLINK_IsHalted()  returns FALSE (0001ms, 0708ms total)
T2934 001:423 JLINK_IsHalted()  returns FALSE (0001ms, 0708ms total)
T2934 001:425 JLINK_IsHalted()  returns FALSE (0000ms, 0707ms total)
T2934 001:427 JLINK_IsHalted()  returns FALSE (0000ms, 0707ms total)
T2934 001:432 JLINK_IsHalted()  returns FALSE (0001ms, 0708ms total)
T2934 001:434 JLINK_IsHalted()  returns FALSE (0001ms, 0708ms total)
T2934 001:436 JLINK_IsHalted() -- CPU_ReadMem(2 bytes @ 0x20000000)  returns TRUE (0004ms, 0711ms total)
T2934 001:440 JLINK_ReadReg(R15 (PC))  returns 0x20000000 (0000ms, 0707ms total)
T2934 001:440 JLINK_ClrBPEx(BPHandle = 0x0000000D)  returns 0x00 (0000ms, 0707ms total)
T2934 001:440 JLINK_ReadReg(R0)  returns 0xAA875CAD (0000ms, 0707ms total)
T2934 001:440 JLINK_WriteReg(R0, 0x00000003)  returns 0x00 (0001ms, 0708ms total)
T2934 001:441 JLINK_WriteReg(R1, 0x08000000)  returns 0x00 (0000ms, 0708ms total)
T2934 001:441 JLINK_WriteReg(R2, 0x00001248)  returns 0x00 (0000ms, 0708ms total)
T2934 001:441 JLINK_WriteReg(R3, 0x04C11DB7)  returns 0x00 (0000ms, 0708ms total)
T2934 001:441 JLINK_WriteReg(R4, 0x00000000)  returns 0x00 (0000ms, 0708ms total)
T2934 001:441 JLINK_WriteReg(R5, 0x00000000)  returns 0x00 (0000ms, 0708ms total)
T2934 001:441 JLINK_WriteReg(R6, 0x00000000)  returns 0x00 (0000ms, 0708ms total)
T2934 001:441 JLINK_WriteReg(R7, 0x00000000)  returns 0x00 (0000ms, 0708ms total)
T2934 001:441 JLINK_WriteReg(R8, 0x00000000)  returns 0x00 (0000ms, 0708ms total)
T2934 001:441 JLINK_WriteReg(R9, 0x2000017C)  returns 0x00 (0000ms, 0708ms total)
T2934 001:441 JLINK_WriteReg(R10, 0x00000000)  returns 0x00 (0000ms, 0708ms total)
T2934 001:441 JLINK_WriteReg(R11, 0x00000000)  returns 0x00 (0000ms, 0708ms total)
T2934 001:441 JLINK_WriteReg(R12, 0x00000000)  returns 0x00 (0000ms, 0708ms total)
T2934 001:441 JLINK_WriteReg(R13 (SP), 0x20001000)  returns 0x00 (0000ms, 0708ms total)
T2934 001:441 JLINK_WriteReg(R14, 0x20000001)  returns 0x00 (0000ms, 0708ms total)
T2934 001:441 JLINK_WriteReg(R15 (PC), 0x20000082)  returns 0x00 (0000ms, 0708ms total)
T2934 001:441 JLINK_WriteReg(XPSR, 0x01000000)  returns 0x00 (0000ms, 0708ms total)
T2934 001:441 JLINK_WriteReg(MSP, 0x20001000)  returns 0x00 (0000ms, 0708ms total)
T2934 001:441 JLINK_WriteReg(PSP, 0x20001000)  returns 0x00 (0000ms, 0708ms total)
T2934 001:441 JLINK_WriteReg(CFBP, 0x00000000)  returns 0x00 (0000ms, 0708ms total)
T2934 001:441 JLINK_SetBPEx(Addr = 0x20000000, Type = 0xFFFFFFF2)  returns 0x0000000E (0000ms, 0708ms total)
T2934 001:441 JLINK_Go() (0001ms, 0709ms total)
T2934 001:442 JLINK_IsHalted() -- CPU_ReadMem(2 bytes @ 0x20000000)  returns TRUE (0003ms, 0712ms total)
T2934 001:445 JLINK_ReadReg(R15 (PC))  returns 0x20000000 (0000ms, 0709ms total)
T2934 001:445 JLINK_ClrBPEx(BPHandle = 0x0000000E)  returns 0x00 (0000ms, 0709ms total)
T2934 001:445 JLINK_ReadReg(R0)  returns 0x00000000 (0000ms, 0709ms total)
T2934 001:500 JLINK_WriteMem(0x20000000, 0x0002 Bytes, ...) - Data: FE E7 -- CPU_WriteMem(2 bytes @ 0x20000000)  returns 0x02 (0001ms, 0710ms total)
T2934 001:501 JLINK_SetResetType(JLINKARM_RESET_TYPE_NORMAL)  returns JLINKARM_RESET_TYPE_NORMAL (0000ms, 0710ms total)
